
T3840 000:325 SEGGER J-Link V4.91b (beta) Log File (0001ms, 0278ms total)
T3840 000:325 DLL Compiled: Sep 15 2014 09:17:56 (0001ms, 0278ms total)
T3840 000:325 Logging started @ 2016-07-25 20:36 (0001ms, 0278ms total)
T3840 000:326 JLINK_SetWarnOutHandler(...) (0000ms, 0278ms total)
T3840 000:326 JLINK_OpenEx(...)
Firmware: J-Link ARM V8 compiled Nov 28 2014 13:44:46
Hardware: V8.00
S/N: 286370559
Feature(s): RDI,FlashDL,FlashBP,JFlash  returns O.K. (0270ms, 0548ms total)
T3840 000:596 JLINK_SetErrorOutHandler(...) (0000ms, 0548ms total)
T3840 000:596 JLINK_ExecCommand("ProjectFile = "C:\Users\Administrator\Documents\GitHub\TI_KONG\User\JLinkSettings.ini"", ...)  returns 0x00 (0000ms, 0548ms total)
T3840 000:597 JLINK_ExecCommand("Device = STM32F103ZE", ...)Device "STM32F103ZE" selected (512 KB flash, 64 KB RAM).  returns 0x00 (0002ms, 0550ms total)
T3840 000:599 JLINK_ExecCommand("DisableConnectionTimeout", ...)  returns 0x01 (0000ms, 0550ms total)
T3840 000:599 JLINK_GetHardwareVersion()  returns 0x13880 (0000ms, 0550ms total)
T3840 000:599 JLINK_GetDLLVersion()  returns 49102 (0001ms, 0551ms total)
T3840 000:600 JLINK_GetFirmwareString(...) (0000ms, 0551ms total)
T3840 000:606 JLINK_GetDLLVersion()  returns 49102 (0000ms, 0551ms total)
T3840 000:606 JLINK_GetCompileDateTime() (0000ms, 0551ms total)
T3840 000:609 JLINK_GetFirmwareString(...) (0000ms, 0551ms total)
T3840 000:611 JLINK_GetHardwareVersion()  returns 0x13880 (0000ms, 0551ms total)
T3840 000:617 JLINK_TIF_Select(JLINKARM_TIF_JTAG)  returns 0x00 (0006ms, 0557ms total)
T3840 000:623 JLINK_SetSpeed(2000) (0001ms, 0558ms total)
T3840 000:624 JLINK_GetIdData(...) >0x2F8 JTAG>TotalIRLen = 9, IRPrint = 0x0011 >0x30 JTAG> >0x210 JTAG> >0x40 JTAG> >0x40 JTAG> >0x40 JTAG> >0x30 JTAG> >0x40 JTAG> >0x40 JTAG> >0x40 JTAG> >0x40 JTAG> >0x40 JTAG> >0x40 JTAG> >0x40 JTAG> >0x40 JTAG> >0x2F8 JTAG>TotalIRLen = 9, IRPrint = 0x0011 >0x30 JTAG> >0x210 JTAG> >0x70 JTAG> >0x40 JTAG> >0x40 JTAG> >0x40 JTAG> >0x50 JTAG> >0x80 JTAG> >0x40 JTAG> >0x30 JTAG> >0x40 JTAG> >0x40 JTAG> >0x30 JTAG> >0x40 JTAG> >0x50 JTAG>
Found Cortex-M3 r1p1, Little endian. -- CPU_WriteMem(4 bytes @ 0xE0002000) -- CPU_ReadMem(4 bytes @ 0xE000EDF0) -- CPU_ReadMem(4 bytes @ 0xE0002000)FPUnit: 6 code (BP) slots and 2 literal slots -- CPU_ReadMem(4 bytes @ 0xE000EDFC) -- CPU_ReadMem(4 bytes @ 0xE0001000) -- CPU_WriteMem(4 bytes @ 0xE0001000) -- CPU_ReadMem(4 bytes @ 0xE000ED88) -- CPU_WriteMem(4 bytes @ 0xE000ED88) -- CPU_ReadMem(4 bytes @ 0xE000ED88) -- CPU_WriteMem(4 bytes @ 0xE000ED88) -- CPU_ReadMem(4 bytes @ 0xE00FF010)TPIU fitted.
 -- CPU_ReadMem(4 bytes @ 0xE00FF014)ETM fitted. -- CPU_ReadMem(4 bytes @ 0xE00FF018) ScanLen=9 NumDevices=2 aId[0]=0x3BA00477 aIrRead[0]=0 aScanLen[0]=0 aScanRead[0]=0 (0061ms, 0619ms total)
T3840 000:685 JLINK_JTAG_GetDeviceID(DeviceIndex = 0)  returns 0x3BA00477 (0000ms, 0619ms total)
T3840 000:685 JLINK_JTAG_GetDeviceInfo(DeviceIndex = 0)  returns 0x00 (0000ms, 0619ms total)
T3840 000:685 JLINK_JTAG_GetDeviceID(DeviceIndex = 1)  returns 0x6414041 (0000ms, 0619ms total)
T3840 000:685 JLINK_JTAG_GetDeviceInfo(DeviceIndex = 1)  returns 0x00 (0000ms, 0619ms total)
T3840 000:685 JLINK_GetDeviceFamily()  returns 3 (0000ms, 0619ms total)
T3840 000:687 JLINK_ReadMem (0xE00FFFF0, 0x0010 Bytes, ...) -- CPU is running -- CPU_ReadMem(16 bytes @ 0xE00FFFF0) - Data: 0D 00 00 00 10 00 00 00 05 00 00 00 B1 00 00 00  returns 0x00 (0001ms, 0620ms total)
T3840 000:688 JLINK_ReadMem (0xE00FFFD0, 0x0020 Bytes, ...) -- CPU is running -- CPU_ReadMem(32 bytes @ 0xE00FFFD0) - Data: 00 00 00 00 00 00 00 00 00 00 00 00 00 00 00 00 ...  returns 0x00 (0001ms, 0621ms total)
T3840 000:689 JLINK_ReadMem (0xE00FF000, 0x0018 Bytes, ...) -- CPU is running -- CPU_ReadMem(24 bytes @ 0xE00FF000) - Data: 03 F0 F0 FF 03 20 F0 FF 03 30 F0 FF 03 10 F0 FF ...  returns 0x00 (0001ms, 0622ms total)
T3840 000:690 JLINK_ReadMemU32(0xE000ED00, 0x0001 Items, ...) -- CPU is running -- CPU_ReadMem(4 bytes @ 0xE000ED00) - Data: 31 C2 1F 41  returns 0x01 (0001ms, 0623ms total)
T3840 000:691 JLINK_SetResetType(JLINKARM_RESET_TYPE_NORMAL)  returns JLINKARM_RESET_TYPE_NORMAL (0000ms, 0623ms total)
T3840 000:691 JLINK_Reset() -- CPU is running -- CPU_WriteMem(4 bytes @ 0xE000EDF0) -- CPU is running -- CPU_WriteMem(4 bytes @ 0xE000EDFC) -- CPU is running -- CPU_WriteMem(4 bytes @ 0xE000ED0C) -- CPU is running -- CPU_ReadMem(4 bytes @ 0xE000EDF0) -- CPU is running -- CPU_ReadMem(4 bytes @ 0xE000EDF0) -- CPU is running -- CPU_WriteMem(4 bytes @ 0xE000EDF0) -- CPU is running -- CPU_WriteMem(4 bytes @ 0xE000EDFC) -- CPU is running -- CPU_ReadMem(4 bytes @ 0xE000EDF0) >0x80 JTAG> >0x40 JTAG> >0x30 JTAG>
 >0x40 JTAG> >0x50 JTAG> >0x40 JTAG> -- CPU_WriteMem(4 bytes @ 0xE000EDFC) -- CPU_WriteMem(4 bytes @ 0xE0001028) -- CPU_WriteMem(4 bytes @ 0xE0001038) -- CPU_WriteMem(4 bytes @ 0xE0001048) -- CPU_WriteMem(4 bytes @ 0xE0001058) -- CPU_WriteMem(4 bytes @ 0xE0002000) -- CPU_ReadMem(4 bytes @ 0xE000EDFC) -- CPU_ReadMem(4 bytes @ 0xE0001000) (0038ms, 0661ms total)
T3840 000:729 JLINK_Halt()  returns 0x00 (0000ms, 0661ms total)
T3840 000:729 JLINK_IsHalted()  returns TRUE (0000ms, 0661ms total)
T3840 000:729 JLINK_ReadMemU32(0xE000EDF0, 0x0001 Items, ...) -- CPU_ReadMem(4 bytes @ 0xE000EDF0) - Data: 03 00 03 00  returns 0x01 (0001ms, 0662ms total)
T3840 000:730 JLINK_WriteU32(0xE000EDF0, 0xA05F0003) -- CPU_WriteMem(4 bytes @ 0xE000EDF0)  returns 0x00 (0001ms, 0663ms total)
T3840 000:731 JLINK_WriteU32(0xE000EDFC, 0x01000000) -- CPU_WriteMem(4 bytes @ 0xE000EDFC)  returns 0x00 (0001ms, 0664ms total)
T3840 000:738 JLINK_GetHWStatus(...)  returns 0x00 (0001ms, 0665ms total)
T3840 000:743 JLINK_GetNumBPUnits(Type = 0xFFFFFF00)  returns 0x06 (0000ms, 0665ms total)
T3840 000:743 JLINK_GetNumBPUnits(Type = 0xF0)  returns 0x2000 (0000ms, 0665ms total)
T3840 000:743 JLINK_GetNumWPUnits()  returns 0x04 (0000ms, 0665ms total)
T3840 000:746 JLINK_GetSpeed()  returns 0x7D0 (0000ms, 0665ms total)
T3840 000:749 JLINK_ReadMemU32(0xE000E004, 0x0001 Items, ...) -- CPU_ReadMem(4 bytes @ 0xE000E004) - Data: 01 00 00 00  returns 0x01 (0001ms, 0666ms total)
T3840 000:750 JLINK_ReadMemU32(0xE000E004, 0x0001 Items, ...) -- CPU_ReadMem(4 bytes @ 0xE000E004) - Data: 01 00 00 00  returns 0x01 (0001ms, 0667ms total)
T3840 000:751 JLINK_WriteMem(0xE0001000, 0x001C Bytes, ...) - Data: 01 00 00 00 00 00 00 00 00 00 00 00 00 00 00 00 ... -- CPU_WriteMem(28 bytes @ 0xE0001000)  returns 0x1C (0001ms, 0668ms total)
T3840 000:752 JLINK_ReadMem (0xE0001000, 0x001C Bytes, ...) -- CPU_ReadMem(28 bytes @ 0xE0001000) - Data: 01 00 00 40 00 00 00 00 00 00 00 00 00 00 00 00 ...  returns 0x00 (0001ms, 0669ms total)
T3840 000:753 JLINK_Halt()  returns 0x00 (0000ms, 0669ms total)
T3840 000:753 JLINK_IsHalted()  returns TRUE (0000ms, 0669ms total)
T3840 000:754 JLINK_WriteMem(0x20000000, 0x0164 Bytes, ...) - Data: 00 BE 0A E0 0D 78 2D 06 68 40 08 24 40 00 00 D3 ... -- CPU_WriteMem(356 bytes @ 0x20000000)  returns 0x164 (0003ms, 0672ms total)
T3840 000:757 JLINK_WriteReg(R0, 0x08000000)  returns 0x00 (0000ms, 0672ms total)
T3840 000:757 JLINK_WriteReg(R1, 0x007A1200)  returns 0x00 (0000ms, 0672ms total)
T3840 000:757 JLINK_WriteReg(R2, 0x00000001)  returns 0x00 (0000ms, 0672ms total)
T3840 000:757 JLINK_WriteReg(R3, 0x00000000)  returns 0x00 (0000ms, 0672ms total)
T3840 000:757 JLINK_WriteReg(R4, 0x00000000)  returns 0x00 (0000ms, 0672ms total)
T3840 000:757 JLINK_WriteReg(R5, 0x00000000)  returns 0x00 (0000ms, 0672ms total)
T3840 000:757 JLINK_WriteReg(R6, 0x00000000)  returns 0x00 (0000ms, 0672ms total)
T3840 000:757 JLINK_WriteReg(R7, 0x00000000)  returns 0x00 (0000ms, 0672ms total)
T3840 000:757 JLINK_WriteReg(R8, 0x00000000)  returns 0x00 (0000ms, 0672ms total)
T3840 000:757 JLINK_WriteReg(R9, 0x20000160)  returns 0x00 (0000ms, 0672ms total)
T3840 000:757 JLINK_WriteReg(R10, 0x00000000)  returns 0x00 (0000ms, 0672ms total)
T3840 000:757 JLINK_WriteReg(R11, 0x00000000)  returns 0x00 (0000ms, 0672ms total)
T3840 000:757 JLINK_WriteReg(R12, 0x00000000)  returns 0x00 (0000ms, 0672ms total)
T3840 000:757 JLINK_WriteReg(R13 (SP), 0x20000800)  returns 0x00 (0000ms, 0672ms total)
T3840 000:757 JLINK_WriteReg(R14, 0x20000001)  returns 0x00 (0000ms, 0672ms total)
T3840 000:757 JLINK_WriteReg(R15 (PC), 0x20000038)  returns 0x00 (0000ms, 0672ms total)
T3840 000:757 JLINK_WriteReg(XPSR, 0x01000000)  returns 0x00 (0000ms, 0672ms total)
T3840 000:757 JLINK_WriteReg(MSP, 0x20000800)  returns 0x00 (0000ms, 0672ms total)
T3840 000:757 JLINK_WriteReg(PSP, 0x20000800)  returns 0x00 (0000ms, 0672ms total)
T3840 000:757 JLINK_WriteReg(CFBP, 0x00000000)  returns 0x00 (0000ms, 0672ms total)
T3840 000:757 JLINK_SetBPEx(Addr = 0x20000000, Type = 0xFFFFFFF2) -- CPU_ReadMem(2 bytes @ 0x20000000)  returns 0x00000001 (0001ms, 0673ms total)
T3840 000:758 JLINK_Go() -- CPU_WriteMem(2 bytes @ 0x20000000) -- CPU_WriteMem(4 bytes @ 0xE0002008) -- CPU_WriteMem(4 bytes @ 0xE000200C) -- CPU_WriteMem(4 bytes @ 0xE0002010) -- CPU_WriteMem(4 bytes @ 0xE0002014) -- CPU_WriteMem(4 bytes @ 0xE0002018) -- CPU_WriteMem(4 bytes @ 0xE000201C) -- CPU_WriteMem(4 bytes @ 0xE0001004) (0011ms, 0684ms total)
T3840 000:769 JLINK_IsHalted() -- CPU_ReadMem(2 bytes @ 0x20000000)  returns TRUE (0006ms, 0690ms total)
T3840 000:775 JLINK_ReadReg(R15 (PC))  returns 0x20000000 (0000ms, 0684ms total)
T3840 000:775 JLINK_ClrBPEx(BPHandle = 0x00000001)  returns 0x00 (0000ms, 0684ms total)
T3840 000:775 JLINK_ReadReg(R0)  returns 0x00000000 (0000ms, 0684ms total)
T3840 000:775 JLINK_WriteReg(R0, 0x08000000)  returns 0x00 (0000ms, 0684ms total)
T3840 000:775 JLINK_WriteReg(R1, 0x007A1200)  returns 0x00 (0000ms, 0684ms total)
T3840 000:775 JLINK_WriteReg(R2, 0x00000001)  returns 0x00 (0000ms, 0684ms total)
T3840 000:775 JLINK_WriteReg(R3, 0x00000000)  returns 0x00 (0000ms, 0684ms total)
T3840 000:775 JLINK_WriteReg(R4, 0x00000000)  returns 0x00 (0000ms, 0684ms total)
T3840 000:775 JLINK_WriteReg(R5, 0x00000000)  returns 0x00 (0000ms, 0684ms total)
T3840 000:775 JLINK_WriteReg(R6, 0x00000000)  returns 0x00 (0000ms, 0684ms total)
T3840 000:775 JLINK_WriteReg(R7, 0x00000000)  returns 0x00 (0000ms, 0684ms total)
T3840 000:775 JLINK_WriteReg(R8, 0x00000000)  returns 0x00 (0000ms, 0684ms total)
T3840 000:775 JLINK_WriteReg(R9, 0x20000160)  returns 0x00 (0000ms, 0684ms total)
T3840 000:775 JLINK_WriteReg(R10, 0x00000000)  returns 0x00 (0000ms, 0684ms total)
T3840 000:775 JLINK_WriteReg(R11, 0x00000000)  returns 0x00 (0000ms, 0684ms total)
T3840 000:775 JLINK_WriteReg(R12, 0x00000000)  returns 0x00 (0000ms, 0684ms total)
T3840 000:775 JLINK_WriteReg(R13 (SP), 0x20000800)  returns 0x00 (0000ms, 0684ms total)
T3840 000:775 JLINK_WriteReg(R14, 0x20000001)  returns 0x00 (0000ms, 0684ms total)
T3840 000:775 JLINK_WriteReg(R15 (PC), 0x2000007C)  returns 0x00 (0000ms, 0684ms total)
T3840 000:775 JLINK_WriteReg(XPSR, 0x01000000)  returns 0x00 (0000ms, 0684ms total)
T3840 000:775 JLINK_WriteReg(MSP, 0x20000800)  returns 0x00 (0000ms, 0684ms total)
T3840 000:775 JLINK_WriteReg(PSP, 0x20000800)  returns 0x00 (0000ms, 0684ms total)
T3840 000:775 JLINK_WriteReg(CFBP, 0x00000000)  returns 0x00 (0000ms, 0684ms total)
T3840 000:775 JLINK_SetBPEx(Addr = 0x20000000, Type = 0xFFFFFFF2)  returns 0x00000002 (0000ms, 0684ms total)
T3840 000:775 JLINK_Go() (0003ms, 0687ms total)
T3840 000:778 JLINK_IsHalted()  returns FALSE (0001ms, 0688ms total)
T3840 000:824 JLINK_IsHalted() -- CPU_ReadMem(2 bytes @ 0x20000000)  returns TRUE (0005ms, 0692ms total)
T3840 000:829 JLINK_ReadReg(R15 (PC))  returns 0x20000000 (0001ms, 0688ms total)
T3840 000:830 JLINK_ClrBPEx(BPHandle = 0x00000002)  returns 0x00 (0000ms, 0688ms total)
T3840 000:830 JLINK_ReadReg(R0)  returns 0x00000000 (0000ms, 0688ms total)
T3840 000:880 JLINK_WriteReg(R0, 0x00000001)  returns 0x00 (0001ms, 0689ms total)
T3840 000:881 JLINK_WriteReg(R1, 0x007A1200)  returns 0x00 (0000ms, 0689ms total)
T3840 000:881 JLINK_WriteReg(R2, 0x00000001)  returns 0x00 (0000ms, 0689ms total)
T3840 000:881 JLINK_WriteReg(R3, 0x00000000)  returns 0x00 (0000ms, 0689ms total)
T3840 000:881 JLINK_WriteReg(R4, 0x00000000)  returns 0x00 (0000ms, 0689ms total)
T3840 000:881 JLINK_WriteReg(R5, 0x00000000)  returns 0x00 (0000ms, 0689ms total)
T3840 000:881 JLINK_WriteReg(R6, 0x00000000)  returns 0x00 (0000ms, 0689ms total)
T3840 000:881 JLINK_WriteReg(R7, 0x00000000)  returns 0x00 (0000ms, 0689ms total)
T3840 000:881 JLINK_WriteReg(R8, 0x00000000)  returns 0x00 (0000ms, 0689ms total)
T3840 000:881 JLINK_WriteReg(R9, 0x20000160)  returns 0x00 (0000ms, 0689ms total)
T3840 000:881 JLINK_WriteReg(R10, 0x00000000)  returns 0x00 (0000ms, 0689ms total)
T3840 000:881 JLINK_WriteReg(R11, 0x00000000)  returns 0x00 (0000ms, 0689ms total)
T3840 000:881 JLINK_WriteReg(R12, 0x00000000)  returns 0x00 (0000ms, 0689ms total)
T3840 000:881 JLINK_WriteReg(R13 (SP), 0x20000800)  returns 0x00 (0000ms, 0689ms total)
T3840 000:881 JLINK_WriteReg(R14, 0x20000001)  returns 0x00 (0000ms, 0689ms total)
T3840 000:881 JLINK_WriteReg(R15 (PC), 0x2000006A)  returns 0x00 (0000ms, 0689ms total)
T3840 000:881 JLINK_WriteReg(XPSR, 0x01000000)  returns 0x00 (0000ms, 0689ms total)
T3840 000:881 JLINK_WriteReg(MSP, 0x20000800)  returns 0x00 (0000ms, 0689ms total)
T3840 000:881 JLINK_WriteReg(PSP, 0x20000800)  returns 0x00 (0000ms, 0689ms total)
T3840 000:882 JLINK_WriteReg(CFBP, 0x00000000)  returns 0x00 (0000ms, 0690ms total)
T3840 000:882 JLINK_SetBPEx(Addr = 0x20000000, Type = 0xFFFFFFF2)  returns 0x00000003 (0000ms, 0690ms total)
T3840 000:882 JLINK_Go() (0002ms, 0692ms total)
T3840 000:884 JLINK_IsHalted() -- CPU_ReadMem(2 bytes @ 0x20000000)  returns TRUE (0006ms, 0698ms total)
T3840 000:890 JLINK_ReadReg(R15 (PC))  returns 0x20000000 (0000ms, 0692ms total)
T3840 000:890 JLINK_ClrBPEx(BPHandle = 0x00000003)  returns 0x00 (0000ms, 0692ms total)
T3840 000:890 JLINK_ReadReg(R0)  returns 0x00000000 (0000ms, 0692ms total)
T3840 000:896 JLINK_WriteMem(0x20000000, 0x0164 Bytes, ...) - Data: 00 BE 0A E0 0D 78 2D 06 68 40 08 24 40 00 00 D3 ... -- CPU_WriteMem(356 bytes @ 0x20000000)  returns 0x164 (0003ms, 0695ms total)
T3840 000:899 JLINK_WriteReg(R0, 0x08000000)  returns 0x00 (0000ms, 0695ms total)
T3840 000:899 JLINK_WriteReg(R1, 0x007A1200)  returns 0x00 (0000ms, 0695ms total)
T3840 000:899 JLINK_WriteReg(R2, 0x00000002)  returns 0x00 (0000ms, 0695ms total)
T3840 000:899 JLINK_WriteReg(R3, 0x00000000)  returns 0x00 (0000ms, 0695ms total)
T3840 000:899 JLINK_WriteReg(R4, 0x00000000)  returns 0x00 (0000ms, 0695ms total)
T3840 000:899 JLINK_WriteReg(R5, 0x00000000)  returns 0x00 (0000ms, 0695ms total)
T3840 000:899 JLINK_WriteReg(R6, 0x00000000)  returns 0x00 (0000ms, 0695ms total)
T3840 000:899 JLINK_WriteReg(R7, 0x00000000)  returns 0x00 (0000ms, 0695ms total)
T3840 000:899 JLINK_WriteReg(R8, 0x00000000)  returns 0x00 (0000ms, 0695ms total)
T3840 000:899 JLINK_WriteReg(R9, 0x20000160)  returns 0x00 (0000ms, 0695ms total)
T3840 000:899 JLINK_WriteReg(R10, 0x00000000)  returns 0x00 (0000ms, 0695ms total)
T3840 000:899 JLINK_WriteReg(R11, 0x00000000)  returns 0x00 (0000ms, 0695ms total)
T3840 000:899 JLINK_WriteReg(R12, 0x00000000)  returns 0x00 (0000ms, 0695ms total)
T3840 000:899 JLINK_WriteReg(R13 (SP), 0x20000800)  returns 0x00 (0000ms, 0695ms total)
T3840 000:899 JLINK_WriteReg(R14, 0x20000001)  returns 0x00 (0001ms, 0696ms total)
T3840 000:900 JLINK_WriteReg(R15 (PC), 0x20000038)  returns 0x00 (0000ms, 0696ms total)
T3840 000:900 JLINK_WriteReg(XPSR, 0x01000000)  returns 0x00 (0000ms, 0696ms total)
T3840 000:900 JLINK_WriteReg(MSP, 0x20000800)  returns 0x00 (0000ms, 0696ms total)
T3840 000:900 JLINK_WriteReg(PSP, 0x20000800)  returns 0x00 (0000ms, 0696ms total)
T3840 000:900 JLINK_WriteReg(CFBP, 0x00000000)  returns 0x00 (0000ms, 0696ms total)
T3840 000:900 JLINK_SetBPEx(Addr = 0x20000000, Type = 0xFFFFFFF2) -- CPU_ReadMem(2 bytes @ 0x20000000)  returns 0x00000004 (0001ms, 0697ms total)
T3840 000:901 JLINK_Go() -- CPU_WriteMem(2 bytes @ 0x20000000) (0003ms, 0700ms total)
T3840 000:904 JLINK_IsHalted() -- CPU_ReadMem(2 bytes @ 0x20000000)  returns TRUE (0006ms, 0706ms total)
T3840 000:910 JLINK_ReadReg(R15 (PC))  returns 0x20000000 (0000ms, 0700ms total)
T3840 000:910 JLINK_ClrBPEx(BPHandle = 0x00000004)  returns 0x00 (0000ms, 0700ms total)
T3840 000:910 JLINK_ReadReg(R0)  returns 0x00000000 (0000ms, 0700ms total)
T3840 000:910 JLINK_WriteMem(0x20000164, 0x0400 Bytes, ...) - Data: F8 06 00 20 DD 01 00 08 F1 4E 00 08 89 0B 00 08 ... -- CPU_WriteMem(1024 bytes @ 0x20000164)  returns 0x400 (0007ms, 0707ms total)
T3840 000:917 JLINK_WriteReg(R0, 0x08000000)  returns 0x00 (0000ms, 0707ms total)
T3840 000:917 JLINK_WriteReg(R1, 0x00000400)  returns 0x00 (0000ms, 0707ms total)
T3840 000:917 JLINK_WriteReg(R2, 0x20000164)  returns 0x00 (0000ms, 0707ms total)
T3840 000:917 JLINK_WriteReg(R3, 0x00000000)  returns 0x00 (0000ms, 0707ms total)
T3840 000:917 JLINK_WriteReg(R4, 0x00000000)  returns 0x00 (0000ms, 0707ms total)
T3840 000:917 JLINK_WriteReg(R5, 0x00000000)  returns 0x00 (0000ms, 0707ms total)
T3840 000:917 JLINK_WriteReg(R6, 0x00000000)  returns 0x00 (0000ms, 0707ms total)
T3840 000:917 JLINK_WriteReg(R7, 0x00000000)  returns 0x00 (0000ms, 0707ms total)
T3840 000:917 JLINK_WriteReg(R8, 0x00000000)  returns 0x00 (0000ms, 0707ms total)
T3840 000:917 JLINK_WriteReg(R9, 0x20000160)  returns 0x00 (0000ms, 0707ms total)
T3840 000:917 JLINK_WriteReg(R10, 0x00000000)  returns 0x00 (0000ms, 0707ms total)
T3840 000:917 JLINK_WriteReg(R11, 0x00000000)  returns 0x00 (0000ms, 0707ms total)
T3840 000:918 JLINK_WriteReg(R12, 0x00000000)  returns 0x00 (0000ms, 0708ms total)
T3840 000:918 JLINK_WriteReg(R13 (SP), 0x20000800)  returns 0x00 (0000ms, 0708ms total)
T3840 000:918 JLINK_WriteReg(R14, 0x20000001)  returns 0x00 (0000ms, 0708ms total)
T3840 000:918 JLINK_WriteReg(R15 (PC), 0x200000F4)  returns 0x00 (0000ms, 0708ms total)
T3840 000:918 JLINK_WriteReg(XPSR, 0x01000000)  returns 0x00 (0000ms, 0708ms total)
T3840 000:918 JLINK_WriteReg(MSP, 0x20000800)  returns 0x00 (0000ms, 0708ms total)
T3840 000:918 JLINK_WriteReg(PSP, 0x20000800)  returns 0x00 (0000ms, 0708ms total)
T3840 000:918 JLINK_WriteReg(CFBP, 0x00000000)  returns 0x00 (0000ms, 0708ms total)
T3840 000:918 JLINK_SetBPEx(Addr = 0x20000000, Type = 0xFFFFFFF2)  returns 0x00000005 (0000ms, 0708ms total)
T3840 000:918 JLINK_Go() (0002ms, 0710ms total)
T3840 000:920 JLINK_IsHalted()  returns FALSE (0001ms, 0711ms total)
T3840 000:959 JLINK_IsHalted() -- CPU_ReadMem(2 bytes @ 0x20000000)  returns TRUE (0006ms, 0716ms total)
T3840 000:965 JLINK_ReadReg(R15 (PC))  returns 0x20000000 (0000ms, 0710ms total)
T3840 000:965 JLINK_ClrBPEx(BPHandle = 0x00000005)  returns 0x00 (0000ms, 0710ms total)
T3840 000:965 JLINK_ReadReg(R0)  returns 0x00000000 (0000ms, 0710ms total)
T3840 000:965 JLINK_WriteMem(0x20000164, 0x0400 Bytes, ...) - Data: 20 46 04 EB 87 02 91 61 E1 68 88 47 01 2F 06 46 ... -- CPU_WriteMem(1024 bytes @ 0x20000164)  returns 0x400 (0007ms, 0717ms total)
T3840 000:972 JLINK_WriteReg(R0, 0x08000400)  returns 0x00 (0000ms, 0717ms total)
T3840 000:972 JLINK_WriteReg(R1, 0x00000400)  returns 0x00 (0000ms, 0717ms total)
T3840 000:972 JLINK_WriteReg(R2, 0x20000164)  returns 0x00 (0000ms, 0717ms total)
T3840 000:972 JLINK_WriteReg(R3, 0x00000000)  returns 0x00 (0000ms, 0717ms total)
T3840 000:972 JLINK_WriteReg(R4, 0x00000000)  returns 0x00 (0000ms, 0717ms total)
T3840 000:972 JLINK_WriteReg(R5, 0x00000000)  returns 0x00 (0000ms, 0717ms total)
T3840 000:972 JLINK_WriteReg(R6, 0x00000000)  returns 0x00 (0000ms, 0717ms total)
T3840 000:972 JLINK_WriteReg(R7, 0x00000000)  returns 0x00 (0000ms, 0717ms total)
T3840 000:972 JLINK_WriteReg(R8, 0x00000000)  returns 0x00 (0000ms, 0717ms total)
T3840 000:972 JLINK_WriteReg(R9, 0x20000160)  returns 0x00 (0000ms, 0717ms total)
T3840 000:972 JLINK_WriteReg(R10, 0x00000000)  returns 0x00 (0000ms, 0717ms total)
T3840 000:972 JLINK_WriteReg(R11, 0x00000000)  returns 0x00 (0000ms, 0717ms total)
T3840 000:972 JLINK_WriteReg(R12, 0x00000000)  returns 0x00 (0000ms, 0717ms total)
T3840 000:972 JLINK_WriteReg(R13 (SP), 0x20000800)  returns 0x00 (0001ms, 0718ms total)
T3840 000:973 JLINK_WriteReg(R14, 0x20000001)  returns 0x00 (0000ms, 0718ms total)
T3840 000:973 JLINK_WriteReg(R15 (PC), 0x200000F4)  returns 0x00 (0000ms, 0718ms total)
T3840 000:973 JLINK_WriteReg(XPSR, 0x01000000)  returns 0x00 (0000ms, 0718ms total)
T3840 000:973 JLINK_WriteReg(MSP, 0x20000800)  returns 0x00 (0000ms, 0718ms total)
T3840 000:973 JLINK_WriteReg(PSP, 0x20000800)  returns 0x00 (0000ms, 0718ms total)
T3840 000:973 JLINK_WriteReg(CFBP, 0x00000000)  returns 0x00 (0000ms, 0718ms total)
T3840 000:973 JLINK_SetBPEx(Addr = 0x20000000, Type = 0xFFFFFFF2)  returns 0x00000006 (0000ms, 0718ms total)
T3840 000:973 JLINK_Go() (0002ms, 0720ms total)
T3840 000:975 JLINK_IsHalted()  returns FALSE (0001ms, 0721ms total)
T3840 000:990 JLINK_IsHalted()  returns FALSE (0001ms, 0721ms total)
T3840 000:997 JLINK_IsHalted()  returns FALSE (0001ms, 0721ms total)
T3840 000:999 JLINK_IsHalted()  returns FALSE (0001ms, 0721ms total)
T3840 001:001 JLINK_IsHalted()  returns FALSE (0002ms, 0722ms total)
T3840 001:004 JLINK_IsHalted()  returns FALSE (0001ms, 0721ms total)
T3840 001:006 JLINK_IsHalted() -- CPU_ReadMem(2 bytes @ 0x20000000)  returns TRUE (0006ms, 0726ms total)
T3840 001:012 JLINK_ReadReg(R15 (PC))  returns 0x20000000 (0000ms, 0720ms total)
T3840 001:012 JLINK_ClrBPEx(BPHandle = 0x00000006)  returns 0x00 (0000ms, 0720ms total)
T3840 001:012 JLINK_ReadReg(R0)  returns 0x00000000 (0000ms, 0720ms total)
T3840 001:012 JLINK_WriteMem(0x20000164, 0x0400 Bytes, ...) - Data: 1F 26 06 FA 07 F1 88 43 56 1E 06 EB 86 06 05 FA ... -- CPU_WriteMem(1024 bytes @ 0x20000164)  returns 0x400 (0007ms, 0727ms total)
T3840 001:019 JLINK_WriteReg(R0, 0x08000800)  returns 0x00 (0000ms, 0727ms total)
T3840 001:019 JLINK_WriteReg(R1, 0x00000400)  returns 0x00 (0000ms, 0727ms total)
T3840 001:019 JLINK_WriteReg(R2, 0x20000164)  returns 0x00 (0000ms, 0727ms total)
T3840 001:019 JLINK_WriteReg(R3, 0x00000000)  returns 0x00 (0000ms, 0727ms total)
T3840 001:019 JLINK_WriteReg(R4, 0x00000000)  returns 0x00 (0000ms, 0727ms total)
T3840 001:019 JLINK_WriteReg(R5, 0x00000000)  returns 0x00 (0000ms, 0727ms total)
T3840 001:019 JLINK_WriteReg(R6, 0x00000000)  returns 0x00 (0000ms, 0727ms total)
T3840 001:019 JLINK_WriteReg(R7, 0x00000000)  returns 0x00 (0000ms, 0727ms total)
T3840 001:019 JLINK_WriteReg(R8, 0x00000000)  returns 0x00 (0000ms, 0727ms total)
T3840 001:019 JLINK_WriteReg(R9, 0x20000160)  returns 0x00 (0000ms, 0727ms total)
T3840 001:019 JLINK_WriteReg(R10, 0x00000000)  returns 0x00 (0000ms, 0727ms total)
T3840 001:019 JLINK_WriteReg(R11, 0x00000000)  returns 0x00 (0000ms, 0727ms total)
T3840 001:019 JLINK_WriteReg(R12, 0x00000000)  returns 0x00 (0001ms, 0728ms total)
T3840 001:020 JLINK_WriteReg(R13 (SP), 0x20000800)  returns 0x00 (0000ms, 0728ms total)
T3840 001:020 JLINK_WriteReg(R14, 0x20000001)  returns 0x00 (0000ms, 0728ms total)
T3840 001:020 JLINK_WriteReg(R15 (PC), 0x200000F4)  returns 0x00 (0000ms, 0728ms total)
T3840 001:020 JLINK_WriteReg(XPSR, 0x01000000)  returns 0x00 (0000ms, 0728ms total)
T3840 001:020 JLINK_WriteReg(MSP, 0x20000800)  returns 0x00 (0000ms, 0728ms total)
T3840 001:020 JLINK_WriteReg(PSP, 0x20000800)  returns 0x00 (0000ms, 0728ms total)
T3840 001:020 JLINK_WriteReg(CFBP, 0x00000000)  returns 0x00 (0000ms, 0728ms total)
T3840 001:020 JLINK_SetBPEx(Addr = 0x20000000, Type = 0xFFFFFFF2)  returns 0x00000007 (0000ms, 0728ms total)
T3840 001:020 JLINK_Go() (0002ms, 0730ms total)
T3840 001:022 JLINK_IsHalted()  returns FALSE (0001ms, 0731ms total)
T3840 001:032 JLINK_IsHalted()  returns FALSE (0001ms, 0731ms total)
T3840 001:034 JLINK_IsHalted()  returns FALSE (0001ms, 0731ms total)
T3840 001:036 JLINK_IsHalted()  returns FALSE (0001ms, 0731ms total)
T3840 001:038 JLINK_IsHalted()  returns FALSE (0001ms, 0731ms total)
T3840 001:044 JLINK_IsHalted()  returns FALSE (0001ms, 0731ms total)
T3840 001:046 JLINK_IsHalted()  returns FALSE (0001ms, 0731ms total)
T3840 001:048 JLINK_IsHalted()  returns FALSE (0001ms, 0731ms total)
T3840 001:050 JLINK_IsHalted()  returns FALSE (0001ms, 0731ms total)
T3840 001:052 JLINK_IsHalted()  returns FALSE (0001ms, 0731ms total)
T3840 001:056 JLINK_IsHalted() -- CPU_ReadMem(2 bytes @ 0x20000000)  returns TRUE (0005ms, 0735ms total)
T3840 001:061 JLINK_ReadReg(R15 (PC))  returns 0x20000000 (0001ms, 0731ms total)
T3840 001:062 JLINK_ClrBPEx(BPHandle = 0x00000007)  returns 0x00 (0000ms, 0731ms total)
T3840 001:062 JLINK_ReadReg(R0)  returns 0x00000000 (0000ms, 0731ms total)
T3840 001:062 JLINK_WriteMem(0x20000164, 0x0400 Bytes, ...) - Data: 6C 49 88 71 F0 20 08 80 4F F4 A0 70 48 80 08 46 ... -- CPU_WriteMem(1024 bytes @ 0x20000164)  returns 0x400 (0006ms, 0737ms total)
T3840 001:068 JLINK_WriteReg(R0, 0x08000C00)  returns 0x00 (0000ms, 0737ms total)
T3840 001:068 JLINK_WriteReg(R1, 0x00000400)  returns 0x00 (0000ms, 0737ms total)
T3840 001:068 JLINK_WriteReg(R2, 0x20000164)  returns 0x00 (0001ms, 0738ms total)
T3840 001:069 JLINK_WriteReg(R3, 0x00000000)  returns 0x00 (0000ms, 0738ms total)
T3840 001:069 JLINK_WriteReg(R4, 0x00000000)  returns 0x00 (0000ms, 0738ms total)
T3840 001:069 JLINK_WriteReg(R5, 0x00000000)  returns 0x00 (0000ms, 0738ms total)
T3840 001:069 JLINK_WriteReg(R6, 0x00000000)  returns 0x00 (0000ms, 0738ms total)
T3840 001:069 JLINK_WriteReg(R7, 0x00000000)  returns 0x00 (0000ms, 0738ms total)
T3840 001:069 JLINK_WriteReg(R8, 0x00000000)  returns 0x00 (0000ms, 0738ms total)
T3840 001:069 JLINK_WriteReg(R9, 0x20000160)  returns 0x00 (0000ms, 0738ms total)
T3840 001:069 JLINK_WriteReg(R10, 0x00000000)  returns 0x00 (0000ms, 0738ms total)
T3840 001:069 JLINK_WriteReg(R11, 0x00000000)  returns 0x00 (0000ms, 0738ms total)
T3840 001:069 JLINK_WriteReg(R12, 0x00000000)  returns 0x00 (0000ms, 0738ms total)
T3840 001:069 JLINK_WriteReg(R13 (SP), 0x20000800)  returns 0x00 (0000ms, 0738ms total)
T3840 001:069 JLINK_WriteReg(R14, 0x20000001)  returns 0x00 (0000ms, 0738ms total)
T3840 001:069 JLINK_WriteReg(R15 (PC), 0x200000F4)  returns 0x00 (0000ms, 0738ms total)
T3840 001:069 JLINK_WriteReg(XPSR, 0x01000000)  returns 0x00 (0000ms, 0738ms total)
T3840 001:069 JLINK_WriteReg(MSP, 0x20000800)  returns 0x00 (0000ms, 0738ms total)
T3840 001:069 JLINK_WriteReg(PSP, 0x20000800)  returns 0x00 (0000ms, 0738ms total)
T3840 001:069 JLINK_WriteReg(CFBP, 0x00000000)  returns 0x00 (0000ms, 0738ms total)
T3840 001:069 JLINK_SetBPEx(Addr = 0x20000000, Type = 0xFFFFFFF2)  returns 0x00000008 (0000ms, 0738ms total)
T3840 001:069 JLINK_Go() (0002ms, 0740ms total)
T3840 001:071 JLINK_IsHalted()  returns FALSE (0001ms, 0741ms total)
T3840 001:077 JLINK_IsHalted()  returns FALSE (0001ms, 0741ms total)
T3840 001:079 JLINK_IsHalted()  returns FALSE (0001ms, 0741ms total)
T3840 001:081 JLINK_IsHalted()  returns FALSE (0001ms, 0741ms total)
T3840 001:083 JLINK_IsHalted()  returns FALSE (0001ms, 0741ms total)
T3840 001:088 JLINK_IsHalted()  returns FALSE (0001ms, 0741ms total)
T3840 001:090 JLINK_IsHalted()  returns FALSE (0001ms, 0741ms total)
T3840 001:092 JLINK_IsHalted()  returns FALSE (0001ms, 0741ms total)
T3840 001:094 JLINK_IsHalted()  returns FALSE (0001ms, 0741ms total)
T3840 001:096 JLINK_IsHalted()  returns FALSE (0001ms, 0741ms total)
T3840 001:098 JLINK_IsHalted()  returns FALSE (0001ms, 0741ms total)
T3840 001:100 JLINK_IsHalted()  returns FALSE (0001ms, 0741ms total)
T3840 001:104 JLINK_IsHalted() -- CPU_ReadMem(2 bytes @ 0x20000000)  returns TRUE (0005ms, 0745ms total)
T3840 001:109 JLINK_ReadReg(R15 (PC))  returns 0x20000000 (0000ms, 0740ms total)
T3840 001:109 JLINK_ClrBPEx(BPHandle = 0x00000008)  returns 0x00 (0001ms, 0741ms total)
T3840 001:110 JLINK_ReadReg(R0)  returns 0x00000000 (0000ms, 0741ms total)
T3840 001:110 JLINK_WriteMem(0x20000164, 0x0400 Bytes, ...) - Data: 00 20 19 90 4F F4 80 40 1A 90 00 20 1B 90 08 A8 ... -- CPU_WriteMem(1024 bytes @ 0x20000164)  returns 0x400 (0006ms, 0747ms total)
T3840 001:116 JLINK_WriteReg(R0, 0x08001000)  returns 0x00 (0000ms, 0747ms total)
T3840 001:116 JLINK_WriteReg(R1, 0x00000400)  returns 0x00 (0000ms, 0747ms total)
T3840 001:116 JLINK_WriteReg(R2, 0x20000164)  returns 0x00 (0000ms, 0747ms total)
T3840 001:116 JLINK_WriteReg(R3, 0x00000000)  returns 0x00 (0000ms, 0747ms total)
T3840 001:116 JLINK_WriteReg(R4, 0x00000000)  returns 0x00 (0000ms, 0747ms total)
T3840 001:116 JLINK_WriteReg(R5, 0x00000000)  returns 0x00 (0000ms, 0747ms total)
T3840 001:116 JLINK_WriteReg(R6, 0x00000000)  returns 0x00 (0000ms, 0747ms total)
T3840 001:116 JLINK_WriteReg(R7, 0x00000000)  returns 0x00 (0000ms, 0747ms total)
T3840 001:116 JLINK_WriteReg(R8, 0x00000000)  returns 0x00 (0000ms, 0747ms total)
T3840 001:116 JLINK_WriteReg(R9, 0x20000160)  returns 0x00 (0000ms, 0747ms total)
T3840 001:116 JLINK_WriteReg(R10, 0x00000000)  returns 0x00 (0000ms, 0747ms total)
T3840 001:116 JLINK_WriteReg(R11, 0x00000000)  returns 0x00 (0001ms, 0748ms total)
T3840 001:117 JLINK_WriteReg(R12, 0x00000000)  returns 0x00 (0000ms, 0748ms total)
T3840 001:117 JLINK_WriteReg(R13 (SP), 0x20000800)  returns 0x00 (0000ms, 0748ms total)
T3840 001:117 JLINK_WriteReg(R14, 0x20000001)  returns 0x00 (0000ms, 0748ms total)
T3840 001:117 JLINK_WriteReg(R15 (PC), 0x200000F4)  returns 0x00 (0000ms, 0748ms total)
T3840 001:117 JLINK_WriteReg(XPSR, 0x01000000)  returns 0x00 (0000ms, 0748ms total)
T3840 001:117 JLINK_WriteReg(MSP, 0x20000800)  returns 0x00 (0000ms, 0748ms total)
T3840 001:117 JLINK_WriteReg(PSP, 0x20000800)  returns 0x00 (0000ms, 0748ms total)
T3840 001:117 JLINK_WriteReg(CFBP, 0x00000000)  returns 0x00 (0000ms, 0748ms total)
T3840 001:117 JLINK_SetBPEx(Addr = 0x20000000, Type = 0xFFFFFFF2)  returns 0x00000009 (0000ms, 0748ms total)
T3840 001:117 JLINK_Go() (0002ms, 0750ms total)
T3840 001:119 JLINK_IsHalted()  returns FALSE (0001ms, 0751ms total)
T3840 001:121 JLINK_IsHalted()  returns FALSE (0000ms, 0750ms total)
T3840 001:122 JLINK_IsHalted()  returns FALSE (0000ms, 0750ms total)
T3840 001:123 JLINK_IsHalted()  returns FALSE (0000ms, 0750ms total)
T3840 001:124 JLINK_IsHalted()  returns FALSE (0000ms, 0750ms total)
T3840 001:125 JLINK_IsHalted()  returns FALSE (0000ms, 0750ms total)
T3840 001:126 JLINK_IsHalted()  returns FALSE (0000ms, 0750ms total)
T3840 001:127 JLINK_IsHalted()  returns FALSE (0000ms, 0750ms total)
T3840 001:128 JLINK_IsHalted()  returns FALSE (0000ms, 0750ms total)
T3840 001:129 JLINK_IsHalted()  returns FALSE (0000ms, 0750ms total)
T3840 001:130 JLINK_IsHalted()  returns FALSE (0000ms, 0750ms total)
T3840 001:131 JLINK_IsHalted()  returns FALSE (0000ms, 0750ms total)
T3840 001:135 JLINK_IsHalted()  returns FALSE (0001ms, 0751ms total)
T3840 001:137 JLINK_IsHalted()  returns FALSE (0001ms, 0751ms total)
T3840 001:139 JLINK_IsHalted()  returns FALSE (0001ms, 0751ms total)
T3840 001:141 JLINK_IsHalted()  returns FALSE (0001ms, 0751ms total)
T3840 001:143 JLINK_IsHalted()  returns FALSE (0001ms, 0751ms total)
T3840 001:145 JLINK_IsHalted()  returns FALSE (0001ms, 0751ms total)
T3840 001:147 JLINK_IsHalted()  returns FALSE (0001ms, 0751ms total)
T3840 001:150 JLINK_IsHalted() -- CPU_ReadMem(2 bytes @ 0x20000000)  returns TRUE (0005ms, 0755ms total)
T3840 001:155 JLINK_ReadReg(R15 (PC))  returns 0x20000000 (0000ms, 0750ms total)
T3840 001:155 JLINK_ClrBPEx(BPHandle = 0x00000009)  returns 0x00 (0000ms, 0750ms total)
T3840 001:155 JLINK_ReadReg(R0)  returns 0x00000000 (0001ms, 0751ms total)
T3840 001:156 JLINK_WriteMem(0x20000164, 0x0400 Bytes, ...) - Data: 00 20 03 F0 A3 FC 00 20 03 F0 A0 FC 01 20 03 F0 ... -- CPU_WriteMem(1024 bytes @ 0x20000164)  returns 0x400 (0006ms, 0757ms total)
T3840 001:162 JLINK_WriteReg(R0, 0x08001400)  returns 0x00 (0000ms, 0757ms total)
T3840 001:162 JLINK_WriteReg(R1, 0x00000400)  returns 0x00 (0000ms, 0757ms total)
T3840 001:162 JLINK_WriteReg(R2, 0x20000164)  returns 0x00 (0000ms, 0757ms total)
T3840 001:162 JLINK_WriteReg(R3, 0x00000000)  returns 0x00 (0000ms, 0757ms total)
T3840 001:162 JLINK_WriteReg(R4, 0x00000000)  returns 0x00 (0000ms, 0757ms total)
T3840 001:162 JLINK_WriteReg(R5, 0x00000000)  returns 0x00 (0000ms, 0757ms total)
T3840 001:162 JLINK_WriteReg(R6, 0x00000000)  returns 0x00 (0000ms, 0757ms total)
T3840 001:162 JLINK_WriteReg(R7, 0x00000000)  returns 0x00 (0000ms, 0757ms total)
T3840 001:162 JLINK_WriteReg(R8, 0x00000000)  returns 0x00 (0000ms, 0757ms total)
T3840 001:162 JLINK_WriteReg(R9, 0x20000160)  returns 0x00 (0000ms, 0757ms total)
T3840 001:162 JLINK_WriteReg(R10, 0x00000000)  returns 0x00 (0001ms, 0758ms total)
T3840 001:163 JLINK_WriteReg(R11, 0x00000000)  returns 0x00 (0000ms, 0758ms total)
T3840 001:163 JLINK_WriteReg(R12, 0x00000000)  returns 0x00 (0000ms, 0758ms total)
T3840 001:163 JLINK_WriteReg(R13 (SP), 0x20000800)  returns 0x00 (0000ms, 0758ms total)
T3840 001:163 JLINK_WriteReg(R14, 0x20000001)  returns 0x00 (0000ms, 0758ms total)
T3840 001:163 JLINK_WriteReg(R15 (PC), 0x200000F4)  returns 0x00 (0000ms, 0758ms total)
T3840 001:163 JLINK_WriteReg(XPSR, 0x01000000)  returns 0x00 (0000ms, 0758ms total)
T3840 001:163 JLINK_WriteReg(MSP, 0x20000800)  returns 0x00 (0000ms, 0758ms total)
T3840 001:163 JLINK_WriteReg(PSP, 0x20000800)  returns 0x00 (0000ms, 0758ms total)
T3840 001:163 JLINK_WriteReg(CFBP, 0x00000000)  returns 0x00 (0000ms, 0758ms total)
T3840 001:163 JLINK_SetBPEx(Addr = 0x20000000, Type = 0xFFFFFFF2)  returns 0x0000000A (0000ms, 0758ms total)
T3840 001:163 JLINK_Go() (0002ms, 0760ms total)
T3840 001:165 JLINK_IsHalted()  returns FALSE (0001ms, 0761ms total)
T3840 001:170 JLINK_IsHalted()  returns FALSE (0001ms, 0761ms total)
T3840 001:172 JLINK_IsHalted()  returns FALSE (0001ms, 0761ms total)
T3840 001:174 JLINK_IsHalted()  returns FALSE (0001ms, 0761ms total)
T3840 001:176 JLINK_IsHalted()  returns FALSE (0001ms, 0761ms total)
T3840 001:178 JLINK_IsHalted()  returns FALSE (0001ms, 0761ms total)
T3840 001:183 JLINK_IsHalted()  returns FALSE (0001ms, 0761ms total)
T3840 001:185 JLINK_IsHalted()  returns FALSE (0001ms, 0761ms total)
T3840 001:187 JLINK_IsHalted()  returns FALSE (0001ms, 0761ms total)
T3840 001:189 JLINK_IsHalted()  returns FALSE (0001ms, 0761ms total)
T3840 001:191 JLINK_IsHalted()  returns FALSE (0001ms, 0761ms total)
T3840 001:193 JLINK_IsHalted()  returns FALSE (0001ms, 0761ms total)
T3840 001:195 JLINK_IsHalted()  returns FALSE (0001ms, 0761ms total)
T3840 001:200 JLINK_IsHalted() -- CPU_ReadMem(2 bytes @ 0x20000000)  returns TRUE (0005ms, 0765ms total)
T3840 001:205 JLINK_ReadReg(R15 (PC))  returns 0x20000000 (0000ms, 0760ms total)
T3840 001:205 JLINK_ClrBPEx(BPHandle = 0x0000000A)  returns 0x00 (0000ms, 0760ms total)
T3840 001:205 JLINK_ReadReg(R0)  returns 0x00000000 (0001ms, 0761ms total)
T3840 001:206 JLINK_WriteMem(0x20000164, 0x0400 Bytes, ...) - Data: A5 FA 3F 20 03 F0 A2 FA 00 20 03 F0 9F FA 5E 20 ... -- CPU_WriteMem(1024 bytes @ 0x20000164)  returns 0x400 (0006ms, 0767ms total)
T3840 001:212 JLINK_WriteReg(R0, 0x08001800)  returns 0x00 (0000ms, 0767ms total)
T3840 001:212 JLINK_WriteReg(R1, 0x00000400)  returns 0x00 (0000ms, 0767ms total)
T3840 001:212 JLINK_WriteReg(R2, 0x20000164)  returns 0x00 (0000ms, 0767ms total)
T3840 001:212 JLINK_WriteReg(R3, 0x00000000)  returns 0x00 (0000ms, 0767ms total)
T3840 001:212 JLINK_WriteReg(R4, 0x00000000)  returns 0x00 (0000ms, 0767ms total)
T3840 001:212 JLINK_WriteReg(R5, 0x00000000)  returns 0x00 (0000ms, 0767ms total)
T3840 001:212 JLINK_WriteReg(R6, 0x00000000)  returns 0x00 (0000ms, 0767ms total)
T3840 001:212 JLINK_WriteReg(R7, 0x00000000)  returns 0x00 (0000ms, 0767ms total)
T3840 001:212 JLINK_WriteReg(R8, 0x00000000)  returns 0x00 (0000ms, 0767ms total)
T3840 001:212 JLINK_WriteReg(R9, 0x20000160)  returns 0x00 (0000ms, 0767ms total)
T3840 001:212 JLINK_WriteReg(R10, 0x00000000)  returns 0x00 (0000ms, 0767ms total)
T3840 001:212 JLINK_WriteReg(R11, 0x00000000)  returns 0x00 (0001ms, 0768ms total)
T3840 001:213 JLINK_WriteReg(R12, 0x00000000)  returns 0x00 (0000ms, 0768ms total)
T3840 001:213 JLINK_WriteReg(R13 (SP), 0x20000800)  returns 0x00 (0000ms, 0768ms total)
T3840 001:213 JLINK_WriteReg(R14, 0x20000001)  returns 0x00 (0000ms, 0768ms total)
T3840 001:213 JLINK_WriteReg(R15 (PC), 0x200000F4)  returns 0x00 (0000ms, 0768ms total)
T3840 001:213 JLINK_WriteReg(XPSR, 0x01000000)  returns 0x00 (0000ms, 0768ms total)
T3840 001:213 JLINK_WriteReg(MSP, 0x20000800)  returns 0x00 (0000ms, 0768ms total)
T3840 001:213 JLINK_WriteReg(PSP, 0x20000800)  returns 0x00 (0000ms, 0768ms total)
T3840 001:213 JLINK_WriteReg(CFBP, 0x00000000)  returns 0x00 (0000ms, 0768ms total)
T3840 001:213 JLINK_SetBPEx(Addr = 0x20000000, Type = 0xFFFFFFF2)  returns 0x0000000B (0000ms, 0768ms total)
T3840 001:213 JLINK_Go() (0002ms, 0770ms total)
T3840 001:215 JLINK_IsHalted()  returns FALSE (0001ms, 0771ms total)
T3840 001:219 JLINK_IsHalted()  returns FALSE (0001ms, 0771ms total)
T3840 001:221 JLINK_IsHalted()  returns FALSE (0001ms, 0771ms total)
T3840 001:223 JLINK_IsHalted()  returns FALSE (0001ms, 0771ms total)
T3840 001:225 JLINK_IsHalted()  returns FALSE (0001ms, 0771ms total)
T3840 001:227 JLINK_IsHalted()  returns FALSE (0001ms, 0771ms total)
T3840 001:229 JLINK_IsHalted()  returns FALSE (0001ms, 0771ms total)
T3840 001:231 JLINK_IsHalted()  returns FALSE (0001ms, 0771ms total)
T3840 001:233 JLINK_IsHalted()  returns FALSE (0001ms, 0771ms total)
T3840 001:235 JLINK_IsHalted()  returns FALSE (0001ms, 0771ms total)
T3840 001:237 JLINK_IsHalted()  returns FALSE (0001ms, 0771ms total)
T3840 001:239 JLINK_IsHalted()  returns FALSE (0001ms, 0771ms total)
T3840 001:243 JLINK_IsHalted()  returns FALSE (0001ms, 0771ms total)
T3840 001:245 JLINK_IsHalted()  returns FALSE (0001ms, 0771ms total)
T3840 001:247 JLINK_IsHalted() -- CPU_ReadMem(2 bytes @ 0x20000000)  returns TRUE (0005ms, 0775ms total)
T3840 001:252 JLINK_ReadReg(R15 (PC))  returns 0x20000000 (0000ms, 0770ms total)
T3840 001:252 JLINK_ClrBPEx(BPHandle = 0x0000000B)  returns 0x00 (0000ms, 0770ms total)
T3840 001:252 JLINK_ReadReg(R0)  returns 0x00000000 (0000ms, 0770ms total)
T3840 001:253 JLINK_WriteMem(0x20000164, 0x0400 Bytes, ...) - Data: 03 F0 A4 F8 1C 20 03 F0 A1 F8 00 20 03 F0 9E F8 ... -- CPU_WriteMem(1024 bytes @ 0x20000164)  returns 0x400 (0006ms, 0777ms total)
T3840 001:259 JLINK_WriteReg(R0, 0x08001C00)  returns 0x00 (0000ms, 0777ms total)
T3840 001:259 JLINK_WriteReg(R1, 0x00000400)  returns 0x00 (0000ms, 0777ms total)
T3840 001:259 JLINK_WriteReg(R2, 0x20000164)  returns 0x00 (0000ms, 0777ms total)
T3840 001:259 JLINK_WriteReg(R3, 0x00000000)  returns 0x00 (0000ms, 0777ms total)
T3840 001:259 JLINK_WriteReg(R4, 0x00000000)  returns 0x00 (0001ms, 0778ms total)
T3840 001:260 JLINK_WriteReg(R5, 0x00000000)  returns 0x00 (0000ms, 0778ms total)
T3840 001:260 JLINK_WriteReg(R6, 0x00000000)  returns 0x00 (0000ms, 0778ms total)
T3840 001:260 JLINK_WriteReg(R7, 0x00000000)  returns 0x00 (0000ms, 0778ms total)
T3840 001:260 JLINK_WriteReg(R8, 0x00000000)  returns 0x00 (0000ms, 0778ms total)
T3840 001:260 JLINK_WriteReg(R9, 0x20000160)  returns 0x00 (0000ms, 0778ms total)
T3840 001:260 JLINK_WriteReg(R10, 0x00000000)  returns 0x00 (0000ms, 0778ms total)
T3840 001:260 JLINK_WriteReg(R11, 0x00000000)  returns 0x00 (0000ms, 0778ms total)
T3840 001:260 JLINK_WriteReg(R12, 0x00000000)  returns 0x00 (0000ms, 0778ms total)
T3840 001:260 JLINK_WriteReg(R13 (SP), 0x20000800)  returns 0x00 (0000ms, 0778ms total)
T3840 001:260 JLINK_WriteReg(R14, 0x20000001)  returns 0x00 (0000ms, 0778ms total)
T3840 001:260 JLINK_WriteReg(R15 (PC), 0x200000F4)  returns 0x00 (0000ms, 0778ms total)
T3840 001:260 JLINK_WriteReg(XPSR, 0x01000000)  returns 0x00 (0000ms, 0778ms total)
T3840 001:260 JLINK_WriteReg(MSP, 0x20000800)  returns 0x00 (0000ms, 0778ms total)
T3840 001:260 JLINK_WriteReg(PSP, 0x20000800)  returns 0x00 (0000ms, 0778ms total)
T3840 001:260 JLINK_WriteReg(CFBP, 0x00000000)  returns 0x00 (0000ms, 0778ms total)
T3840 001:260 JLINK_SetBPEx(Addr = 0x20000000, Type = 0xFFFFFFF2)  returns 0x0000000C (0000ms, 0778ms total)
T3840 001:261 JLINK_Go() (0002ms, 0780ms total)
T3840 001:263 JLINK_IsHalted()  returns FALSE (0001ms, 0781ms total)
T3840 001:272 JLINK_IsHalted()  returns FALSE (0001ms, 0781ms total)
T3840 001:279 JLINK_IsHalted()  returns FALSE (0001ms, 0781ms total)
T3840 001:281 JLINK_IsHalted()  returns FALSE (0001ms, 0781ms total)
T3840 001:283 JLINK_IsHalted()  returns FALSE (0001ms, 0781ms total)
T3840 001:285 JLINK_IsHalted()  returns FALSE (0001ms, 0781ms total)
T3840 001:287 JLINK_IsHalted()  returns FALSE (0001ms, 0781ms total)
T3840 001:292 JLINK_IsHalted()  returns FALSE (0001ms, 0781ms total)
T3840 001:294 JLINK_IsHalted() -- CPU_ReadMem(2 bytes @ 0x20000000)  returns TRUE (0006ms, 0786ms total)
T3840 001:300 JLINK_ReadReg(R15 (PC))  returns 0x20000000 (0000ms, 0780ms total)
T3840 001:300 JLINK_ClrBPEx(BPHandle = 0x0000000C)  returns 0x00 (0000ms, 0780ms total)
T3840 001:300 JLINK_ReadReg(R0)  returns 0x00000000 (0000ms, 0780ms total)
T3840 001:300 JLINK_WriteMem(0x20000164, 0x0400 Bytes, ...) - Data: BE 20 02 F0 A3 FE 00 20 02 F0 A0 FE C4 20 02 F0 ... -- CPU_WriteMem(1024 bytes @ 0x20000164)  returns 0x400 (0007ms, 0787ms total)
T3840 001:307 JLINK_WriteReg(R0, 0x08002000)  returns 0x00 (0000ms, 0787ms total)
T3840 001:307 JLINK_WriteReg(R1, 0x00000400)  returns 0x00 (0000ms, 0787ms total)
T3840 001:307 JLINK_WriteReg(R2, 0x20000164)  returns 0x00 (0000ms, 0787ms total)
T3840 001:307 JLINK_WriteReg(R3, 0x00000000)  returns 0x00 (0000ms, 0787ms total)
T3840 001:307 JLINK_WriteReg(R4, 0x00000000)  returns 0x00 (0000ms, 0787ms total)
T3840 001:307 JLINK_WriteReg(R5, 0x00000000)  returns 0x00 (0000ms, 0787ms total)
T3840 001:307 JLINK_WriteReg(R6, 0x00000000)  returns 0x00 (0000ms, 0787ms total)
T3840 001:307 JLINK_WriteReg(R7, 0x00000000)  returns 0x00 (0000ms, 0787ms total)
T3840 001:307 JLINK_WriteReg(R8, 0x00000000)  returns 0x00 (0000ms, 0787ms total)
T3840 001:307 JLINK_WriteReg(R9, 0x20000160)  returns 0x00 (0000ms, 0787ms total)
T3840 001:307 JLINK_WriteReg(R10, 0x00000000)  returns 0x00 (0000ms, 0787ms total)
T3840 001:307 JLINK_WriteReg(R11, 0x00000000)  returns 0x00 (0000ms, 0787ms total)
T3840 001:307 JLINK_WriteReg(R12, 0x00000000)  returns 0x00 (0000ms, 0787ms total)
T3840 001:307 JLINK_WriteReg(R13 (SP), 0x20000800)  returns 0x00 (0000ms, 0787ms total)
T3840 001:307 JLINK_WriteReg(R14, 0x20000001)  returns 0x00 (0000ms, 0787ms total)
T3840 001:307 JLINK_WriteReg(R15 (PC), 0x200000F4)  returns 0x00 (0000ms, 0787ms total)
T3840 001:307 JLINK_WriteReg(XPSR, 0x01000000)  returns 0x00 (0000ms, 0787ms total)
T3840 001:307 JLINK_WriteReg(MSP, 0x20000800)  returns 0x00 (0000ms, 0787ms total)
T3840 001:307 JLINK_WriteReg(PSP, 0x20000800)  returns 0x00 (0000ms, 0787ms total)
T3840 001:307 JLINK_WriteReg(CFBP, 0x00000000)  returns 0x00 (0000ms, 0787ms total)
T3840 001:307 JLINK_SetBPEx(Addr = 0x20000000, Type = 0xFFFFFFF2)  returns 0x0000000D (0000ms, 0787ms total)
T3840 001:307 JLINK_Go() (0003ms, 0790ms total)
T3840 001:310 JLINK_IsHalted()  returns FALSE (0001ms, 0791ms total)
T3840 001:318 JLINK_IsHalted()  returns FALSE (0001ms, 0791ms total)
T3840 001:323 JLINK_IsHalted()  returns FALSE (0001ms, 0791ms total)
T3840 001:325 JLINK_IsHalted()  returns FALSE (0001ms, 0791ms total)
T3840 001:327 JLINK_IsHalted()  returns FALSE (0001ms, 0791ms total)
T3840 001:329 JLINK_IsHalted()  returns FALSE (0001ms, 0791ms total)
T3840 001:331 JLINK_IsHalted()  returns FALSE (0001ms, 0791ms total)
T3840 001:333 JLINK_IsHalted()  returns FALSE (0001ms, 0791ms total)
T3840 001:335 JLINK_IsHalted()  returns FALSE (0001ms, 0791ms total)
T3840 001:337 JLINK_IsHalted()  returns FALSE (0001ms, 0791ms total)
T3840 001:339 JLINK_IsHalted()  returns FALSE (0001ms, 0791ms total)
T3840 001:341 JLINK_IsHalted() -- CPU_ReadMem(2 bytes @ 0x20000000)  returns TRUE (0006ms, 0796ms total)
T3840 001:347 JLINK_ReadReg(R15 (PC))  returns 0x20000000 (0000ms, 0790ms total)
T3840 001:347 JLINK_ClrBPEx(BPHandle = 0x0000000D)  returns 0x00 (0000ms, 0790ms total)
T3840 001:347 JLINK_ReadReg(R0)  returns 0x00000000 (0000ms, 0790ms total)
T3840 001:347 JLINK_WriteMem(0x20000164, 0x0400 Bytes, ...) - Data: A5 FC 00 20 02 F0 A2 FC 00 20 02 F0 9F FC F0 20 ... -- CPU_WriteMem(1024 bytes @ 0x20000164)  returns 0x400 (0007ms, 0797ms total)
T3840 001:354 JLINK_WriteReg(R0, 0x08002400)  returns 0x00 (0000ms, 0797ms total)
T3840 001:354 JLINK_WriteReg(R1, 0x00000400)  returns 0x00 (0000ms, 0797ms total)
T3840 001:354 JLINK_WriteReg(R2, 0x20000164)  returns 0x00 (0000ms, 0797ms total)
T3840 001:354 JLINK_WriteReg(R3, 0x00000000)  returns 0x00 (0000ms, 0797ms total)
T3840 001:354 JLINK_WriteReg(R4, 0x00000000)  returns 0x00 (0000ms, 0797ms total)
T3840 001:354 JLINK_WriteReg(R5, 0x00000000)  returns 0x00 (0000ms, 0797ms total)
T3840 001:354 JLINK_WriteReg(R6, 0x00000000)  returns 0x00 (0000ms, 0797ms total)
T3840 001:354 JLINK_WriteReg(R7, 0x00000000)  returns 0x00 (0000ms, 0797ms total)
T3840 001:354 JLINK_WriteReg(R8, 0x00000000)  returns 0x00 (0000ms, 0797ms total)
T3840 001:355 JLINK_WriteReg(R9, 0x20000160)  returns 0x00 (0000ms, 0797ms total)
T3840 001:355 JLINK_WriteReg(R10, 0x00000000)  returns 0x00 (0000ms, 0797ms total)
T3840 001:355 JLINK_WriteReg(R11, 0x00000000)  returns 0x00 (0000ms, 0797ms total)
T3840 001:355 JLINK_WriteReg(R12, 0x00000000)  returns 0x00 (0000ms, 0797ms total)
T3840 001:355 JLINK_WriteReg(R13 (SP), 0x20000800)  returns 0x00 (0000ms, 0797ms total)
T3840 001:355 JLINK_WriteReg(R14, 0x20000001)  returns 0x00 (0000ms, 0797ms total)
T3840 001:355 JLINK_WriteReg(R15 (PC), 0x200000F4)  returns 0x00 (0000ms, 0797ms total)
T3840 001:355 JLINK_WriteReg(XPSR, 0x01000000)  returns 0x00 (0000ms, 0797ms total)
T3840 001:355 JLINK_WriteReg(MSP, 0x20000800)  returns 0x00 (0000ms, 0797ms total)
T3840 001:355 JLINK_WriteReg(PSP, 0x20000800)  returns 0x00 (0000ms, 0797ms total)
T3840 001:355 JLINK_WriteReg(CFBP, 0x00000000)  returns 0x00 (0000ms, 0797ms total)
T3840 001:355 JLINK_SetBPEx(Addr = 0x20000000, Type = 0xFFFFFFF2)  returns 0x0000000E (0001ms, 0798ms total)
T3840 001:356 JLINK_Go() (0002ms, 0800ms total)
T3840 001:358 JLINK_IsHalted()  returns FALSE (0001ms, 0801ms total)
T3840 001:378 JLINK_IsHalted()  returns FALSE (0001ms, 0801ms total)
T3840 001:380 JLINK_IsHalted()  returns FALSE (0001ms, 0801ms total)
T3840 001:385 JLINK_IsHalted()  returns FALSE (0001ms, 0801ms total)
T3840 001:387 JLINK_IsHalted()  returns FALSE (0001ms, 0801ms total)
T3840 001:389 JLINK_IsHalted() -- CPU_ReadMem(2 bytes @ 0x20000000)  returns TRUE (0006ms, 0806ms total)
T3840 001:395 JLINK_ReadReg(R15 (PC))  returns 0x20000000 (0000ms, 0800ms total)
T3840 001:395 JLINK_ClrBPEx(BPHandle = 0x0000000E)  returns 0x00 (0000ms, 0800ms total)
T3840 001:395 JLINK_ReadReg(R0)  returns 0x00000000 (0000ms, 0800ms total)
T3840 001:396 JLINK_WriteMem(0x20000164, 0x0400 Bytes, ...) - Data: BB FA 02 21 4D F2 26 10 02 F0 B6 FA CF 21 4D F2 ... -- CPU_WriteMem(1024 bytes @ 0x20000164)  returns 0x400 (0007ms, 0807ms total)
T3840 001:403 JLINK_WriteReg(R0, 0x08002800)  returns 0x00 (0000ms, 0807ms total)
T3840 001:403 JLINK_WriteReg(R1, 0x00000400)  returns 0x00 (0000ms, 0807ms total)
T3840 001:403 JLINK_WriteReg(R2, 0x20000164)  returns 0x00 (0000ms, 0807ms total)
T3840 001:403 JLINK_WriteReg(R3, 0x00000000)  returns 0x00 (0000ms, 0807ms total)
T3840 001:403 JLINK_WriteReg(R4, 0x00000000)  returns 0x00 (0000ms, 0807ms total)
T3840 001:403 JLINK_WriteReg(R5, 0x00000000)  returns 0x00 (0000ms, 0807ms total)
T3840 001:403 JLINK_WriteReg(R6, 0x00000000)  returns 0x00 (0000ms, 0807ms total)
T3840 001:403 JLINK_WriteReg(R7, 0x00000000)  returns 0x00 (0000ms, 0807ms total)
T3840 001:403 JLINK_WriteReg(R8, 0x00000000)  returns 0x00 (0000ms, 0807ms total)
T3840 001:403 JLINK_WriteReg(R9, 0x20000160)  returns 0x00 (0000ms, 0807ms total)
T3840 001:403 JLINK_WriteReg(R10, 0x00000000)  returns 0x00 (0000ms, 0807ms total)
T3840 001:403 JLINK_WriteReg(R11, 0x00000000)  returns 0x00 (0000ms, 0807ms total)
T3840 001:403 JLINK_WriteReg(R12, 0x00000000)  returns 0x00 (0000ms, 0807ms total)
T3840 001:403 JLINK_WriteReg(R13 (SP), 0x20000800)  returns 0x00 (0000ms, 0807ms total)
T3840 001:403 JLINK_WriteReg(R14, 0x20000001)  returns 0x00 (0000ms, 0807ms total)
T3840 001:403 JLINK_WriteReg(R15 (PC), 0x200000F4)  returns 0x00 (0000ms, 0807ms total)
T3840 001:403 JLINK_WriteReg(XPSR, 0x01000000)  returns 0x00 (0000ms, 0807ms total)
T3840 001:403 JLINK_WriteReg(MSP, 0x20000800)  returns 0x00 (0000ms, 0807ms total)
T3840 001:403 JLINK_WriteReg(PSP, 0x20000800)  returns 0x00 (0000ms, 0807ms total)
T3840 001:403 JLINK_WriteReg(CFBP, 0x00000000)  returns 0x00 (0000ms, 0807ms total)
T3840 001:403 JLINK_SetBPEx(Addr = 0x20000000, Type = 0xFFFFFFF2)  returns 0x0000000F (0001ms, 0808ms total)
T3840 001:404 JLINK_Go() (0002ms, 0810ms total)
T3840 001:406 JLINK_IsHalted()  returns FALSE (0001ms, 0811ms total)
T3840 001:411 JLINK_IsHalted()  returns FALSE (0001ms, 0811ms total)
T3840 001:419 JLINK_IsHalted()  returns FALSE (0001ms, 0811ms total)
T3840 001:421 JLINK_IsHalted()  returns FALSE (0001ms, 0811ms total)
T3840 001:423 JLINK_IsHalted()  returns FALSE (0001ms, 0811ms total)
T3840 001:425 JLINK_IsHalted()  returns FALSE (0001ms, 0811ms total)
T3840 001:427 JLINK_IsHalted()  returns FALSE (0001ms, 0811ms total)
T3840 001:432 JLINK_IsHalted()  returns FALSE (0001ms, 0811ms total)
T3840 001:434 JLINK_IsHalted()  returns FALSE (0001ms, 0811ms total)
T3840 001:436 JLINK_IsHalted()  returns FALSE (0001ms, 0811ms total)
T3840 001:438 JLINK_IsHalted() -- CPU_ReadMem(2 bytes @ 0x20000000)  returns TRUE (0006ms, 0816ms total)
T3840 001:444 JLINK_ReadReg(R15 (PC))  returns 0x20000000 (0000ms, 0810ms total)
T3840 001:444 JLINK_ClrBPEx(BPHandle = 0x0000000F)  returns 0x00 (0000ms, 0810ms total)
T3840 001:444 JLINK_ReadReg(R0)  returns 0x00000000 (0000ms, 0810ms total)
